VERSION
8

COMMSETTINGS
0
COM6
COM2
115200
2
0
4
0
0

COMMDISPLAY
0

VERSATAP
0

CHANNELALIAS



SEND
0
1 Read
01 03 00 00 00 01 84 0A
0
5

SEND
1
4  Read
04 03 00 00 00 01 84 5F
0
5

SEND
2
2 Read
02 03 00 00 00 01 84 39
0
5

SEND
3
3 Read
03 03 00 00 00 01 85 E8
0
5

SEND
4
set addr 3
01 06 00 06 00 03 29 CA
0
5

SEND
5
03 send g
03 06 00 02 00 04 28 2B
0
5

SEND
6
03 baud
03 06 00 07 00 06 B9 EB
0
5

SEND
7
1 g
01 06 00 02 00 04 29 C9
0
5

